# MHz S DB R 50
             0        -10.826            180          -0.27              0       -0.26607              0        -10.855            180
            40        -10.804         174.12       -0.28582        -10.685       -0.28356        -10.665        -11.044         174.85
            80        -10.769          167.7       -0.33379        -21.338       -0.33321        -21.296        -11.643         170.03
           120        -10.794          160.5       -0.41366        -31.906       -0.41441        -31.842        -12.759         166.27
           160        -10.951         152.64       -0.52038         -42.33       -0.52192        -42.244        -14.568         165.41
           200        -11.278          144.5       -0.64301         -52.57       -0.64486        -52.467        -17.171         172.61
           240        -11.756         136.49       -0.76885        -62.639       -0.77065        -62.522        -19.245        -161.94
           280        -12.318          128.8       -0.88985        -72.596       -0.89108        -72.466        -17.278        -131.55
           320        -12.878         121.16        -1.0063        -82.509        -1.0062         -82.37        -13.737        -120.73
           360        -13.384         112.83        -1.1251        -92.417         -1.123        -92.274        -10.922        -120.88
           400        -13.865         102.94        -1.2546        -102.31        -1.2524        -102.16        -8.8787        -124.91
           440        -14.396          90.91        -1.3991        -112.13        -1.3982        -111.99         -7.366        -130.09
           480         -15.03          76.65        -1.5578        -121.83        -1.5584        -121.67        -6.1757        -135.51
           520        -15.736         60.374        -1.7244        -131.34        -1.7253        -131.16        -5.1738        -141.09
           560         -16.38         42.515        -1.8885        -140.64        -1.8865        -140.42        -4.3085        -147.06
           600        -16.766         23.734        -2.0374        -149.74        -2.0281        -149.49        -3.5859        -153.55
           640        -16.745         4.9053        -2.1605         -158.7         -2.141        -158.43        -3.0258        -160.44
           680        -16.321        -13.108        -2.2546        -167.59        -2.2256        -167.35        -2.6289         -167.5
           720        -15.655         -29.68        -2.3266         -176.5        -2.2929         -176.3        -2.3729        -174.55
           760        -14.938        -44.361         -2.388         174.56        -2.3575         174.72        -2.2316         178.45
           800         -14.28        -56.737        -2.4442         165.66         -2.423         165.82        -2.1958         171.39
           840        -13.655        -66.612        -2.4866         156.87         -2.475         157.07        -2.2783         164.25
           880        -12.946        -74.502        -2.4966         148.17        -2.4902         148.45        -2.4974         157.12
           920        -12.093        -81.771        -2.4612         139.43        -2.4541         139.78         -2.849         150.24
           960        -11.207        -89.757        -2.3887         130.45        -2.3774         130.85        -3.2979         143.72
          1000        -10.495        -98.774         -2.308         121.14        -2.2936         121.55        -3.8029         137.37
          1040        -10.117        -108.05        -2.2511         111.57        -2.2378         111.98        -4.3687         130.69
          1080        -10.105        -116.19        -2.2331         101.94        -2.2244         102.35        -5.0816         123.23
          1120         -10.31        -121.79        -2.2411         92.454         -2.238         92.899        -6.0932            115
          1160        -10.398        -124.53        -2.2425         83.184        -2.2424         83.682         -7.571          106.7
          1200        -10.091        -126.39        -2.2079             74        -2.2048         74.535        -9.6382         99.798
          1240        -9.5095        -130.07        -2.1346         64.655        -2.1254         65.186        -12.295          96.57
          1280        -9.0378        -136.26        -2.0509         54.969        -2.0379         55.452        -15.248         99.359
          1320        -8.9525        -143.51        -1.9968         44.955        -1.9857         45.377        -18.018         107.53
          1360         -9.285        -149.56             -2         34.808        -1.9957         35.189        -21.002         118.73
          1400        -9.7825        -152.46        -2.0613         24.793        -2.0644         25.172        -25.128         147.33
          1440        -9.9516        -152.33        -2.1548         15.115        -2.1615         15.524         -22.93        -157.47
          1480        -9.5224         -152.6        -2.2399         5.8208        -2.2441         6.2661        -17.322        -145.43
          1520        -8.8407        -156.42          -2.28        -3.2386        -2.2801        -2.7787        -13.926        -150.99
          1560         -8.399        -163.49        -2.2631         -12.34          -2.26        -11.893        -12.186        -160.34
          1600        -8.4183        -171.69        -2.2082        -21.735        -2.2061        -21.303        -11.605         -168.9
          1640        -8.8413        -178.84        -2.1523        -31.523        -2.1535         -31.08        -11.736        -173.89
          1680        -9.3878         176.29        -2.1302        -41.632        -2.1328        -41.145        -11.965        -174.24
          1720        -9.7008         172.84        -2.1603         -51.88        -2.1594        -51.338        -11.736        -172.61
          1760        -9.7041         168.01        -2.2403        -62.063        -2.2314        -61.487        -11.189        -173.32
          1800        -9.7175         159.84        -2.3501        -72.043        -2.3332        -71.468        -10.923        -177.07
          1840        -10.132         148.54        -2.4618        -81.804        -2.4416        -81.256        -11.332         179.04
          1880        -11.198         135.52         -2.556        -91.463        -2.5404        -90.932        -12.353          179.6
          1920        -13.019         122.45        -2.6333        -101.18        -2.6256        -100.63        -13.108        -171.72
          1960        -15.555         110.83        -2.7134        -111.05        -2.7111        -110.46        -12.418         -160.5
          2000        -18.562         100.69        -2.8206        -121.04        -2.8183         -120.4        -10.875        -155.88
          2040        -21.696         87.333         -2.969           -131        -2.9626        -130.33        -9.5714        -156.88
          2080         -24.48         57.947        -3.1552        -140.73        -3.1451        -140.09        -8.7333        -159.33
          2120        -24.084         7.1472         -3.359        -150.11        -3.3505        -149.51        -8.1028        -160.87
          2160        -20.336        -32.766        -3.5497        -159.09        -3.5497        -158.53        -7.3404        -161.81
          2200        -17.089        -57.612         -3.699        -167.78        -3.7098        -167.19        -6.3795        -164.14
          2240        -14.997        -74.982         -3.796        -176.37        -3.8126        -175.72         -5.463        -168.93
          2280        -13.734        -87.026        -3.8536         174.95        -3.8668         175.67        -4.8285        -175.39
          2320        -12.811        -94.601        -3.8981         166.14        -3.9016         166.86        -4.5186         177.98
          2360        -11.811        -99.842        -3.9498         157.27        -3.9462         157.93        -4.4002         172.29
          2400         -10.69         -105.7        -4.0104         148.49          -4.01         149.07        -4.2669         167.51
          2440         -9.733        -113.55        -4.0622         139.91         -4.076         140.43        -4.0058         162.44
          2480        -9.2234        -122.63         -4.078         131.49        -4.1089         132.06        -3.7113         155.79
          2520        -9.2686        -130.94        -4.0384         123.06        -4.0774         123.76        -3.6002         147.25
          2560        -9.7195        -136.16         -3.949         114.38        -3.9805         115.21        -3.8456         137.68
          2600        -10.099        -137.18        -3.8398         105.28        -3.8543         106.17         -4.485         128.41
          2640        -9.9344        -136.64        -3.7465         95.772        -3.7485         96.646        -5.3957         120.57
          2680        -9.4037        -138.58        -3.6928          85.98        -3.6928         86.805        -6.3497         114.17
          2720        -9.0637        -143.62        -3.6876         76.051        -3.6945         76.867        -7.2017         107.71
          2760        -9.2678        -149.55        -3.7316         66.118        -3.7456         66.998        -8.0687         99.106
          2800        -10.055        -152.99        -3.8205          56.32        -3.8323         57.312        -9.2944         87.021
          2840        -10.974        -150.38        -3.9391         46.807        -3.9358          47.89         -11.32         70.916
          2880        -10.981        -142.75        -4.0537         37.674        -4.0291          38.76        -14.689         49.643
          2920        -9.8733        -138.55        -4.1214         28.821        -4.0828         29.819        -20.073         16.261
          2960        -8.7002        -140.92        -4.1224         19.927        -4.0854         20.823        -24.385        -53.906
          3000        -8.0645        -146.46        -4.0841         10.673        -4.0607         11.534        -20.959        -106.43
          3040        -7.9441        -151.67        -4.0617        0.99195        -4.0499         1.8973         -17.96        -123.42
          3080        -8.0325        -154.76        -4.1009        -8.8964        -4.0918         -7.916        -15.618        -129.36
          3120        -7.9582        -156.15        -4.2143        -18.606        -4.2004        -17.576        -13.349        -133.95
          3160        -7.5819         -158.1        -4.3687        -27.742        -4.3498         -26.71        -11.335         -141.1
          3200        -7.1295        -162.48        -4.4853        -36.131        -4.4677        -35.121        -9.8712        -150.74
          3240        -6.9334        -169.09        -4.4742        -44.102        -4.4647         -43.08        -9.0838        -161.26
          3280        -7.1665        -176.28        -4.3147        -52.426        -4.3121        -51.331        -8.9271         -170.8
          3320        -7.7673         177.75        -4.0899        -61.708        -4.0853        -60.514        -9.1952         -177.9
          3360        -8.4958         173.78        -3.9143        -71.916        -3.9022         -70.66        -9.5849          177.7
          3400        -9.1391         170.85        -3.8534        -82.567        -3.8338        -81.301        -9.8985          174.7
          3440        -9.7492         167.22        -3.9078        -93.107        -3.8857        -91.866        -10.214         171.64
          3480        -10.632         162.27        -4.0286        -103.15        -4.0109        -101.93        -10.768          168.6
          3520        -12.146         157.39          -4.14        -112.62        -4.1312         -111.4        -11.699         167.48
          3560        -14.521         156.39        -4.1821        -121.88        -4.1805        -120.61        -12.775         171.19
          3600         -17.37         166.07        -4.1634        -131.49         -4.162        -130.15        -13.248        -179.91
          3640        -18.739        -171.73        -4.1617        -141.74        -4.1533        -140.37        -12.689        -171.25
          3680        -17.895        -152.91        -4.2628        -152.41        -4.2453        -151.04        -11.673        -166.83
          3720        -16.627        -141.53        -4.5035        -162.88        -4.4832        -161.59        -10.709        -165.34
          3760         -15.22        -132.53         -4.847         -172.5        -4.8335        -171.28        -9.8035        -164.86
          3800        -13.377        -126.71        -5.1808         179.14         -5.181        -179.67        -8.8035        -165.34
          3840        -11.437        -126.48        -5.3582         171.75        -5.3721         172.96        -7.7203        -167.86
          3880        -9.9236        -130.85        -5.3129         164.25        -5.3308         165.53        -6.7514        -172.91
          3920        -9.0505        -136.97        -5.1407         155.61        -5.1512         156.93         -6.088        -179.71
          3960        -8.7189        -142.09        -5.0147         145.74        -5.0146         147.03        -5.7797         173.12
          4000        -8.5887         -144.7        -5.0415         135.37        -5.0385         136.57        -5.7212         166.72
          4040        -8.2736        -145.61        -5.2129         125.42         -5.221         126.52        -5.7226         161.34
          4080        -7.6924        -147.34        -5.4363         116.43        -5.4677         117.52        -5.6394         156.12
          4120        -7.1232        -151.42        -5.5884          108.4        -5.6417         109.62        -5.4869         149.76
          4160        -6.8999        -157.26        -5.5788         100.75        -5.6352         102.18        -5.4281         141.41
          4200        -7.2005        -162.74        -5.4107         92.617        -5.4479          94.22        -5.6736         131.13
          4240        -7.9041         -164.9          -5.18         83.462        -5.1887         85.104        -6.3899         119.76
          4280        -8.4222        -162.17        -4.9973          73.39        -4.9858         74.949        -7.6396         108.57
          4320        -8.1563        -158.09        -4.9132         62.881        -4.8989          64.32        -9.3556         98.606
          4360        -7.4214        -157.63        -4.9164         52.333        -4.9138         53.704        -11.388         89.896
          4400        -6.8819        -160.83        -4.9802         41.881        -4.9927         43.276        -13.657          80.71
          4440        -6.8231        -164.99        -5.0961         31.526        -5.1169         33.017        -16.347         67.201
          4480        -7.1745        -167.29        -5.2745         21.342         -5.295         22.947        -19.785         41.356
          4520        -7.5455        -165.89        -5.5198          11.58        -5.5301          13.26        -22.024        -11.595
          4560        -7.3737         -162.1        -5.7967          2.599        -5.7944         4.2784        -18.882         -63.66
          4600         -6.592        -160.35         -6.014         -5.465        -6.0063         -3.844        -15.197        -91.716
          4640        -5.7419        -162.63         -6.074        -13.079        -6.0718        -11.504        -12.696         -109.4
          4680        -5.2376         -167.3        -5.9723        -21.145        -5.9784        -19.552        -11.066        -122.03
          4720        -5.1179           -172        -5.8143        -30.237        -5.8223         -28.58        -9.9255         -131.4
          4760        -5.1941        -175.39        -5.7242        -40.218        -5.7256        -38.502        -9.0139        -138.83
          4800        -5.2332        -177.57        -5.7702         -50.48        -5.7598        -48.743        -8.2254        -145.55
          4840        -5.1386        -179.76        -5.9447        -60.274        -5.9254        -58.567        -7.5822        -152.33
          4880        -5.0144            177        -6.1589        -69.024        -6.1376        -67.383        -7.1462        -159.26
          4920        -5.0368         172.76        -6.2681        -76.755        -6.2555        -75.173        -6.9501        -165.99
          4960        -5.2943         168.42        -6.1729        -84.327        -6.1751        -82.734        -6.9681        -172.04
          5000        -5.7393         164.89        -5.9203        -92.818        -5.9329        -91.144        -7.1353        -177.18
          5040        -6.2551         162.39        -5.6594        -102.62        -5.6734        -100.85        -7.4048         178.45
          5080        -6.7869         160.42        -5.5169         -113.3        -5.5269        -111.47         -7.786         174.74
          5120        -7.4137         158.58        -5.5296        -124.06        -5.5367         -122.2        -8.3165         171.98
          5160        -8.2637          157.5        -5.6391         -134.2         -5.649        -132.33        -8.9765         170.98
          5200        -9.3328         158.87        -5.7277        -143.57        -5.7452        -141.66        -9.6019         172.52
          5240        -10.309         164.25        -5.7013        -152.73        -5.7232        -150.73        -9.9158         176.21
          5280        -10.688         172.43        -5.5781        -162.54        -5.5949        -160.47        -9.7846        -179.97
          5320        -10.416          179.5        -5.4794        -173.44        -5.4846        -171.36        -9.3814        -177.75
          5360        -9.9413        -176.08         -5.536         174.91         -5.532         176.92        -8.9553        -177.11
          5400        -9.5185        -172.77        -5.8111         163.34        -5.8087         165.23        -8.5887        -177.03
          5440        -9.0313        -169.28        -6.2745         152.86        -6.2852         154.65        -8.1991        -176.91
          5480        -8.2924        -166.28        -6.7917         144.25        -6.8189         146.03        -7.6798        -177.11
          5520        -7.3609        -165.35        -7.1403         137.52        -7.1749         139.36        -7.0392        -178.57
          5560        -6.4908         -166.9          -7.14         131.38        -7.1664         133.28        -6.4089         178.15
          5600        -5.8653        -169.94        -6.8366         123.98        -6.8487         125.84        -5.9366          173.3
          5640        -5.4843        -173.12        -6.4631         114.46        -6.4685         116.22         -5.695          167.6
          5680        -5.2185        -175.79        -6.2345         103.28        -6.2433         104.96        -5.6751          161.7
          5720        -4.9488        -178.31        -6.2524         91.456        -6.2683         93.128        -5.8272         155.92
          5760        -4.6911         178.52        -6.5157         80.108        -6.5332         81.849        -6.1145         150.18
          5800        -4.5813         174.47        -6.9318         70.183        -6.9387         72.033        -6.5494         144.23
          5840         -4.752         170.27        -7.3197          62.14        -7.3017         64.067        -7.1982         137.91
          5880        -5.2203         167.35        -7.4696         55.434        -7.4226         57.332        -8.1663         131.33
