# MHz S DB R 50
             0        -11.095            180       -0.40251              0        -0.4019              0        -11.107            180
            40        -11.248         166.74       -0.43095        -10.531        -0.4323        -10.508        -11.243          166.7
            80        -11.699         153.53       -0.51556        -20.962       -0.51918        -20.912        -11.639         153.39
           120        -12.437         140.28       -0.65201        -31.176       -0.65731        -31.093        -12.288         139.96
           160         -13.46         126.61       -0.82725        -41.048       -0.83292        -40.932        -13.197         126.05
           200        -14.806         111.82        -1.0177        -50.496        -1.0224        -50.354        -14.405         111.09
           240        -16.558         94.723         -1.194        -59.525        -1.1971        -59.367        -15.993         94.219
           280        -18.809         73.262        -1.3309        -68.245        -1.3324        -68.081        -18.052         74.071
           320        -21.392         43.642        -1.4161        -76.834        -1.4165        -76.671         -20.54         48.158
           360        -23.061         2.8053         -1.454        -85.473        -1.4539        -85.311        -22.778          13.13
           400        -22.236        -37.988        -1.4618        -94.277        -1.4631        -94.115        -23.158        -27.129
           440        -20.147        -66.137        -1.4598        -103.27        -1.4632         -103.1        -21.581        -59.096
           480        -18.078        -84.737         -1.462        -112.39         -1.467         -112.2        -19.447         -80.53
           520        -16.247        -98.899        -1.4709        -121.54        -1.4757        -121.33         -17.37        -96.543
           560        -14.673        -111.64        -1.4775        -130.68        -1.4793        -130.44        -15.528        -110.83
           600        -13.409         -124.3        -1.4672        -139.83        -1.4633        -139.56        -14.026        -124.93
           640        -12.503        -137.15        -1.4318        -149.09        -1.4209        -148.82        -12.917        -139.09
           680        -11.964        -150.01        -1.3799        -158.62        -1.3628        -158.35        -12.191        -153.06
           720        -11.754         -162.6        -1.3382        -168.52        -1.3176        -168.26         -11.79        -166.56
           760        -11.818         -174.9        -1.3405        -178.72        -1.3209        -178.46        -11.631        -179.54
           800        -12.108         172.86        -1.4097         170.98        -1.3944         171.25        -11.641         167.74
           840        -12.622         160.21        -1.5424         160.85        -1.5313         161.16        -11.789         154.83
           880        -13.409         146.66        -1.7072         151.07        -1.6985         151.43        -12.095         141.35
           920        -14.544         131.84        -1.8628         141.62        -1.8544         142.03        -12.592         127.19
           960        -16.074         115.41        -1.9885         132.27         -1.979         132.72        -13.278          112.5
          1000        -17.942         96.604        -2.1031         122.76        -2.0929         123.24        -14.079         97.424
          1040        -19.829         73.839        -2.2532         113.06        -2.2435         113.57        -14.844         81.817
          1080        -20.932         45.774         -2.478         103.44        -2.4707         103.96        -15.387         65.039
          1120        -20.378         15.573        -2.7755         94.317        -2.7722         94.864         -15.59         46.322
          1160         -18.48        -10.884        -3.0874         86.071        -3.0881         86.661        -15.458         25.594
          1200        -16.261        -32.536         -3.318         78.675        -3.3188         79.305        -15.104         3.8941
          1240        -14.339        -50.881         -3.396         71.588        -3.3939         72.231        -14.695        -17.116
          1280        -12.914        -66.715        -3.3368         64.056         -3.332         64.676        -14.364        -35.801
          1320        -11.966        -79.968        -3.2344         55.659        -3.2307         56.237        -14.115        -50.958
          1360        -11.333        -90.328        -3.1923         46.554        -3.1937         47.095        -13.785        -62.317
          1400        -10.765        -98.048        -3.2634         37.294        -3.2718         37.822        -13.167         -71.22
          1440        -10.057         -104.5        -3.4291         28.506        -3.4434         29.049        -12.265        -80.104
          1480        -9.2191        -111.56        -3.6061         20.579        -3.6227         21.158        -11.337        -90.534
          1520        -8.4495        -120.17        -3.6848         13.375        -3.7001         13.992        -10.674        -102.34
          1560        -7.9439        -129.92        -3.6039         6.2186        -3.6149         6.8524        -10.419        -114.26
          1600          -7.78        -139.76        -3.3998        -1.6352        -3.4077        -1.0049         -10.55         -124.8
          1640         -7.904         -148.6        -3.1721        -10.487        -3.1795        -9.8574        -10.879        -132.89
          1680        -8.1581        -155.88        -3.0099        -20.122        -3.0174        -19.474         -11.12        -138.71
          1720        -8.3634        -162.06        -2.9512        -30.069        -2.9573        -29.386          -11.1        -144.13
          1760        -8.4626        -168.41        -2.9813        -39.878         -2.983        -39.155        -10.965        -151.18
          1800        -8.5875        -176.07        -3.0497        -49.304        -3.0452         -48.55        -11.039        -160.32
          1840        -8.9582         174.91        -3.1008        -58.403        -3.0897        -57.633        -11.588         -170.4
          1880        -9.7493         165.47        -3.1075        -67.454        -3.0927        -66.685        -12.731        -179.33
          1920        -11.022         157.17         -3.085        -76.737        -3.0702        -75.979         -14.36         175.47
          1960        -12.674         151.71        -3.0723        -86.328        -3.0611        -85.578        -16.011         175.93
          2000         -14.41         150.01        -3.0992        -96.085        -3.0942        -95.328        -17.054        -179.87
          2040        -15.926         150.81        -3.1691        -105.79         -3.171        -105.01        -17.543        -176.68
          2080        -17.328         151.74        -3.2643        -115.31        -3.2714        -114.48        -18.106        -174.99
          2120        -19.112         153.25        -3.3622        -124.63        -3.3712        -123.74        -18.905        -170.73
          2160        -21.503         161.19        -3.4499        -133.81        -3.4572        -132.87        -19.144        -161.32
          2200        -22.932        -177.16        -3.5273        -142.92        -3.5303        -141.95        -18.056        -153.21
          2240        -21.372        -157.86        -3.5984        -151.98        -3.5972           -151        -16.471        -153.02
          2280        -19.289        -153.81        -3.6599        -160.96        -3.6559        -159.99        -15.313        -158.68
          2320         -18.12        -156.79        -3.7016        -169.91        -3.6959        -168.96        -14.761        -166.26
          2360        -17.772        -160.51        -3.7178        -178.93        -3.7124        -178.01        -14.611        -173.32
          2400        -17.798        -162.38        -3.7188         171.84        -3.7164         172.71        -14.521        -179.37
          2440        -17.737        -163.21        -3.7316          162.3        -3.7353         163.15        -14.247         174.03
          2480        -17.558        -166.14        -3.7887         152.53           -3.8         153.39        -13.854         164.64
          2520        -17.752        -172.96        -3.9089         142.75        -3.9255         143.65        -13.618         151.52
          2560        -18.971         177.31          -4.08         133.21        -4.0962         134.18        -13.759         135.19
          2600        -22.055         167.86         -4.259         124.05        -4.2688         125.09        -14.332         116.75
          2640        -29.263         171.37        -4.4007          115.1        -4.4022         116.17        -15.212         97.353
          2680        -31.016         -90.61        -4.4962         105.99        -4.4906         107.06        -16.092         77.945
          2720        -22.866        -78.385        -4.5856         96.403        -4.5761         97.476        -16.569         59.141
          2760        -19.262        -82.686        -4.7386         86.293         -4.727         87.382        -16.346         41.046
          2800        -17.287        -86.002        -5.0241         75.965        -5.0086         77.083        -15.451         23.323
          2840        -15.741         -86.29        -5.4753         66.066        -5.4525         67.207        -14.211          5.759
          2880        -13.956        -85.959        -6.0435         57.437        -6.0121         58.566            -13        -11.297
          2920         -11.99        -88.599        -6.5678         50.559        -6.5327         51.633        -12.049         -27.01
          2960        -10.263        -94.769        -6.8553         44.813        -6.8277         45.834        -11.393        -40.457
          3000        -8.9998        -102.81        -6.8679         38.702        -6.8559         39.733         -10.91        -51.181
          3040        -8.1868        -110.99        -6.7582         31.218        -6.7597         32.332        -10.417        -59.627
          3080        -7.6922        -118.22        -6.7114         22.465        -6.7173         23.694        -9.8232        -66.983
          3120        -7.3449        -124.13        -6.8353         13.236        -6.8369         14.562        -9.1733        -74.398
          3160        -6.9943         -129.1        -7.1401         4.5547        -7.1335          5.935        -8.5949         -82.33
          3200        -6.5787        -133.95         -7.526        -2.6341        -7.5119        -1.2467        -8.1981        -90.475
          3240        -6.1531        -139.43        -7.7836        -8.0819        -7.7672          -6.72        -8.0089        -98.098
          3280        -5.8217         -145.6        -7.7256        -12.904        -7.7145        -11.558        -7.9459        -104.57
          3320        -5.6359        -151.99        -7.3928        -18.818        -7.3893        -17.442        -7.8723        -109.97
          3360        -5.5615        -158.14        -6.9988        -26.475        -7.0004        -25.044         -7.719        -115.11
          3400        -5.5297        -164.08        -6.7095         -35.32         -6.712        -33.827        -7.5465        -120.76
          3440        -5.5112        -170.22         -6.567         -44.45        -6.5661        -42.907        -7.4747        -127.04
          3480        -5.5494        -177.01        -6.5195        -53.167        -6.5126        -51.604        -7.5913        -133.46
          3520        -5.7354         175.48        -6.4636         -61.24        -6.4521        -59.696        -7.9024        -139.23
          3560        -6.1489         167.65        -6.3046        -69.056        -6.2952        -67.548        -8.3168        -143.73
          3600        -6.8029         160.16        -6.0343        -77.369        -6.0335        -75.871        -8.6943        -147.07
          3640        -7.6321         153.49        -5.7389        -86.664        -5.7472        -85.121        -8.9783        -150.14
          3680        -8.5527         147.45        -5.5219        -96.824        -5.5337        -95.198        -9.2674        -153.65
          3720        -9.5672          141.3        -5.4385        -107.34        -5.4479        -105.63        -9.7161        -157.31
          3760        -10.828         134.42        -5.4816        -117.65         -5.484        -115.88        -10.383        -159.86
          3800        -12.617         127.05        -5.5927        -127.34        -5.5861        -125.55        -11.117        -159.84
          3840        -15.317         121.09        -5.6864        -136.37        -5.6745        -134.61        -11.537         -157.1
          3880        -19.307         122.34        -5.6983        -145.15        -5.6872        -143.41        -11.368        -154.33
          3920        -23.556         145.05        -5.6357        -154.23        -5.6278        -152.48        -10.859        -154.56
          3960        -23.469         178.33        -5.5687        -163.89        -5.5603        -162.11        -10.455        -157.83
          4000        -21.992        -167.89        -5.5645        -173.95        -5.5508        -172.14        -10.358        -162.37
          4040        -21.528        -158.11         -5.641         175.99        -5.6216         177.79          -10.5        -166.55
          4080        -20.755        -143.57        -5.7723         166.23         -5.752         168.01        -10.682        -169.93
          4120        -18.611        -132.53        -5.9168         156.86        -5.9024         158.63        -10.744         -173.4
          4160        -16.277        -131.78        -6.0421         147.77        -6.0342         149.58        -10.719        -178.55
          4200        -14.799        -137.69        -6.1376          138.8        -6.1297         140.69        -10.836         173.68
          4240        -14.455        -145.03        -6.2093         129.83        -6.1908         131.78        -11.368         163.52
          4280        -15.128        -148.52        -6.2631         120.81        -6.2281         122.77        -12.508         152.08
          4320        -16.021         -143.1        -6.2962         111.71        -6.2497         113.59        -14.329         140.54
          4360        -15.628        -131.74        -6.3103         102.38        -6.2651         104.15        -16.822         129.38
          4400        -14.037        -125.84        -6.3283         92.658        -6.2958         94.366        -19.974         117.07
          4440        -12.577        -127.01         -6.395         82.478        -6.3784         84.212        -23.802         96.998
          4480        -11.771        -130.79        -6.5639         71.994        -6.5594         73.837        -26.721         52.384
          4520        -11.542        -133.23        -6.8761         61.611        -6.8681           63.6        -23.752         1.3538
          4560        -11.431        -131.86        -7.3294         51.975        -7.3004         54.054        -19.309        -25.353
          4600        -10.779        -128.02        -7.8389         43.735        -7.7829         45.755        -15.962        -42.025
          4640        -9.5168        -126.55        -8.2376         36.961        -8.1721         38.779        -13.586        -54.912
          4680        -8.2213        -129.38        -8.3934         30.701        -8.3487         32.342        -11.887        -65.399
          4720        -7.2864        -134.72        -8.3452         23.653        -8.3346         25.296        -10.606        -73.973
          4760        -6.7433        -140.43        -8.2574         15.271        -8.2684         17.081        -9.5514         -81.27
          4800        -6.4434        -145.22          -8.28         5.9159         -8.288         7.9371        -8.6426        -88.023
          4840         -6.195        -148.94        -8.4826        -3.5745        -8.4697        -1.4165        -7.8901        -94.677
          4880        -5.8784        -152.28        -8.8393        -12.246           -8.8        -10.099        -7.3266        -101.15
          4920        -5.5169        -156.15        -9.2205         -19.44        -9.1701        -17.431         -6.941        -106.99
          4960        -5.2207        -160.77        -9.4438        -25.371        -9.4091        -23.474        -6.6474        -111.85
          5000        -5.0623         -165.7        -9.4207        -31.196        -9.4098         -29.23        -6.3305           -116
          5040        -5.0197        -170.35        -9.2406        -37.999        -9.2321        -35.837        -5.9501        -120.22
          5080        -5.0117        -174.59        -9.0652          -45.9        -9.0315        -43.603        -5.5864        -125.18
          5120        -4.9801        -178.81        -8.9872        -54.234        -8.9201        -51.995        -5.3691        -130.82
          5160         -4.951          176.4        -8.9826        -62.214        -8.9019        -60.213         -5.375        -136.37
          5200        -5.0147         170.85        -8.9399        -69.534         -8.885        -67.783        -5.5661        -140.83
          5240        -5.2556         164.86        -8.7531        -76.689        -8.7515        -74.978         -5.777        -143.65
          5280        -5.6968            159        -8.4267        -84.603        -8.4692        -82.664        -5.8125        -145.44
          5320        -6.2925         153.73        -8.0794        -93.814        -8.1304         -91.54         -5.639        -147.74
          5360        -6.9745         148.99        -7.8447         -104.1        -7.8735        -101.59        -5.4373        -151.62
          5400        -7.7359         144.25        -7.7911        -114.73        -7.7892        -112.17        -5.4339        -156.76
          5440        -8.6841         139.06        -7.9043        -124.92        -7.8838        -122.45        -5.7534        -161.93
          5480         -10.02         133.63        -8.0986        -134.08        -8.0805        -131.73        -6.3702        -165.52
          5520        -11.985         129.35        -8.2391        -142.08        -8.2392        -139.77        -7.0668        -166.15
          5560        -14.771          129.6        -8.2026        -149.52        -8.2179        -147.12        -7.4489        -163.98
          5600        -18.074         141.34        -7.9702        -157.47        -7.9814        -154.95        -7.2752         -161.7
          5640        -19.754         168.28        -7.6478        -166.74          -7.64        -164.18        -6.7811        -162.06
          5680        -18.573        -168.38        -7.3826         -177.4        -7.3582        -174.94        -6.3602         -165.2
          5720        -16.763        -155.86        -7.2854            171        -7.2589          173.3        -6.2199        -169.74
          5760        -15.033        -148.45          -7.41          159.2        -7.3991         161.35        -6.3722        -174.19
          5800        -13.301        -144.52        -7.7519         148.02        -7.7698         150.13        -6.7021        -177.51
          5840        -11.685         -144.2        -8.2358         138.28        -8.2822          140.5        -7.0265        -179.47
          5880        -10.387        -146.62        -8.7037         130.42        -8.7559          132.9        -7.1978         179.14
